
T4DA4 000:003 SEGGER J-Link V6.16c Log File (0000ms, 0002ms total)
T4DA4 000:003 DLL Compiled: Jun 16 2017 18:14:49 (0000ms, 0002ms total)
T4DA4 000:003 Logging started @ 2025-12-18 16:28 (0000ms, 0002ms total)
T4DA4 000:003 JLINK_SetWarnOutHandler(...) (0000ms, 0002ms total)
T4DA4 000:003 JLINK_OpenEx(...)
Firmware: J-Link ARM-OB STM32 compiled Aug 22 2012 19:52:04
Hardware: V7.00
S/N: 20090928
Feature(s): JFlash, RDI, GDB, FlashDL, FlashBPWEBSRV Webserver running on local port 19080 (0011ms, 0013ms total)
T4DA4 000:003   returns O.K. (0011ms, 0013ms total)
T4DA4 000:014 JLINK_GetEmuCaps()  returns 0x88EA5833 (0000ms, 0013ms total)
T4DA4 000:014 JLINK_TIF_GetAvailable(...) (0000ms, 0013ms total)
T4DA4 000:014 JLINK_SetErrorOutHandler(...) (0000ms, 0013ms total)
T4DA4 000:014 JLINK_ExecCommand("ProjectFile = "D:\物联网传输层实践\MQTT\STM32发布数据到MQTT完整代码V1\USER\JLinkSettings.ini"", ...).   returns 0x00 (0065ms, 0078ms total)
T4DA4 000:083 JLINK_ExecCommand("Device = STM32F407ZE", ...). Device "STM32F407ZE" selected.  returns 0x00 (0003ms, 0081ms total)
T4DA4 000:086 JLINK_ExecCommand("DisableConnectionTimeout", ...).   returns 0x01 (0000ms, 0081ms total)
T4DA4 000:086 JLINK_GetHardwareVersion()  returns 0x11170 (0000ms, 0081ms total)
T4DA4 000:086 JLINK_GetDLLVersion()  returns 61603 (0000ms, 0081ms total)
T4DA4 000:086 JLINK_GetFirmwareString(...) (0000ms, 0081ms total)
T4DA4 000:092 JLINK_GetDLLVersion()  returns 61603 (0000ms, 0081ms total)
T4DA4 000:092 JLINK_GetCompileDateTime() (0000ms, 0081ms total)
T4DA4 000:093 JLINK_GetFirmwareString(...) (0000ms, 0081ms total)
T4DA4 000:095 JLINK_GetHardwareVersion()  returns 0x11170 (0000ms, 0081ms total)
T4DA4 000:101 JLINK_TIF_Select(JLINKARM_TIF_SWD)  returns 0x00 (0001ms, 0082ms total)
T4DA4 000:102 JLINK_SetSpeed(5000) (0000ms, 0082ms total)
T4DA4 000:102 JLINK_GetId() >0x10B TIF>Found SW-DP with ID 0x2BA01477 >0x0D TIF> >0x28 TIF> >0x0D TIF> >0x28 TIF> >0x0D TIF> >0x28 TIF> >0x0D TIF> >0x28 TIF> >0x0D TIF> >0x21 TIF> >0x0D TIF> >0x28 TIF> >0x0D TIF> >0x28 TIF> >0x0D TIF> >0x28 TIF> >0x0D TIF> >0x21 TIF> >0x0D TIF> >0x21 TIF> >0x0D TIF> >0x28 TIF> >0x0D TIF> >0x21 TIF> >0x0D TIF> >0x21 TIF> >0x0D TIF> >0x28 TIF> >0x0D TIF> >0x28 TIF> >0x0D TIF> >0x28 TIF> >0x0D TIF> >0x21 TIF> >0x0D TIF> >0x21 TIF> >0x0D TIF> >0x28 TIF> >0x0D TIF> >0x28 TIF>
 >0x0D TIF> >0x28 TIF> >0x0D TIF> >0x21 TIF> >0x0D TIF> >0x21 TIF> >0x0D TIF> >0x28 TIF> >0x0D TIF> >0x21 TIF> >0x0D TIF> >0x21 TIF> >0x0D TIF> >0x28 TIF> >0x0D TIF> >0x21 TIF> >0x0D TIF> >0x21 TIF> >0x10B TIF>Found SW-DP with ID 0x2BA01477 >0x0D TIF> >0x28 TIF> >0x0D TIF> >0x28 TIF> >0x0D TIF> >0x28 TIF> >0x0D TIF> >0x28 TIF> >0x0D TIF> >0x21 TIF> >0x0D TIF> >0x28 TIF>Scanning APs, stopping at first AHB-AP found. >0x0D TIF> >0x28 TIF> >0x0D TIF> >0x21 TIF> >0x0D TIF> >0x21 TIF>
AP[0] IDR: 0x24770011 (AHB-AP) >0x0D TIF> >0x28 TIF> >0x0D TIF> >0x21 TIF> >0x0D TIF> >0x21 TIF>AHB-AP ROM: 0xE00FF000 (Base addr. of first ROM table) >0x0D TIF> >0x28 TIF> >0x0D TIF> >0x28 TIF> >0x0D TIF> >0x28 TIF> >0x0D TIF> >0x21 TIF> >0x0D TIF> >0x21 TIF> >0x0D TIF> >0x28 TIF> >0x0D TIF> >0x21 TIF> >0x0D TIF> >0x21 TIF>CPUID reg: 0x410FC241. Implementer code: 0x41 (ARM)Found Cortex-M4 r0p1, Little endian. -- CPU_ReadMem(4 bytes @ 0xE000EDF0) -- CPU_WriteMem(4 bytes @ 0xE000EDF0)
 -- CPU_ReadMem(4 bytes @ 0xE0002000)FPUnit: 6 code (BP) slots and 2 literal slots -- CPU_ReadMem(4 bytes @ 0xE000EDFC) -- CPU_WriteMem(4 bytes @ 0xE000EDFC) -- CPU_ReadMem(4 bytes @ 0xE0001000) -- CPU_WriteMem(4 bytes @ 0xE0001000) -- CPU_ReadMem(4 bytes @ 0xE000ED88) -- CPU_WriteMem(4 bytes @ 0xE000ED88) -- CPU_ReadMem(4 bytes @ 0xE000ED88) -- CPU_WriteMem(4 bytes @ 0xE000ED88)CoreSight components:ROMTbl[0] @ E00FF000 -- CPU_ReadMem(16 bytes @ 0xE00FF000) -- CPU_ReadMem(16 bytes @ 0xE000EFF0)
 -- CPU_ReadMem(16 bytes @ 0xE000EFE0)ROMTbl[0][0]: E000E000, CID: B105E00D, PID: 000BB00C SCS -- CPU_ReadMem(16 bytes @ 0xE0001FF0) -- CPU_ReadMem(16 bytes @ 0xE0001FE0)ROMTbl[0][1]: E0001000, CID: B105E00D, PID: 003BB002 DWT -- CPU_ReadMem(16 bytes @ 0xE0002FF0) -- CPU_ReadMem(16 bytes @ 0xE0002FE0)ROMTbl[0][2]: E0002000, CID: B105E00D, PID: 002BB003 FPB -- CPU_ReadMem(16 bytes @ 0xE0000FF0) -- CPU_ReadMem(16 bytes @ 0xE0000FE0)ROMTbl[0][3]: E0000000, CID: B105E00D, PID: 003BB001 ITM
 -- CPU_ReadMem(16 bytes @ 0xE00FF010) -- CPU_ReadMem(16 bytes @ 0xE0040FF0) -- CPU_ReadMem(16 bytes @ 0xE0040FE0)ROMTbl[0][4]: E0040000, CID: B105900D, PID: 000BB9A1 TPIU -- CPU_ReadMem(16 bytes @ 0xE0041FF0) -- CPU_ReadMem(16 bytes @ 0xE0041FE0)ROMTbl[0][5]: E0041000, CID: B105900D, PID: 000BB925 ETM >0x0D TIF> >0x21 TIF>  returns 0x2BA01477 (0059ms, 0141ms total)
T4DA4 000:161 JLINK_GetDLLVersion()  returns 61603 (0000ms, 0141ms total)
T4DA4 000:161 JLINK_CORE_GetFound()  returns 0xE0000FF (0000ms, 0141ms total)
T4DA4 000:161 JLINK_GetDebugInfo(0x100 = JLINKARM_ROM_TABLE_ADDR_INDEX) -- Value=0xE00FF000  returns 0x00 (0000ms, 0141ms total)
T4DA4 000:162 JLINK_GetDebugInfo(0x100 = JLINKARM_ROM_TABLE_ADDR_INDEX) -- Value=0xE00FF000  returns 0x00 (0000ms, 0141ms total)
T4DA4 000:162 JLINK_GetDebugInfo(0x101 = JLINKARM_DEBUG_INFO_ETM_ADDR_INDEX) -- Value=0xE0041000  returns 0x00 (0000ms, 0141ms total)
T4DA4 000:162 JLINK_ReadMemEx(0xE0041FD0, 0x0020 Bytes, ..., Flags = 0x02000004) -- CPU_ReadMem(32 bytes @ 0xE0041FD0) - Data: 04 00 00 00 00 00 00 00 00 00 00 00 00 00 00 00 ...  returns 0x20 (0001ms, 0142ms total)
T4DA4 000:163 JLINK_GetDebugInfo(0x102 = JLINKARM_DEBUG_INFO_MTB_ADDR_INDEX) -- Value=0x00000000  returns 0x00 (0000ms, 0142ms total)
T4DA4 000:163 JLINK_GetDebugInfo(0x103 = JLINKARM_DEBUG_INFO_TPIU_ADDR_INDEX) -- Value=0xE0040000  returns 0x00 (0000ms, 0142ms total)
T4DA4 000:163 JLINK_GetDebugInfo(0x104 = JLINKARM_DEBUG_INFO_ITM_ADDR_INDEX) -- Value=0xE0000000  returns 0x00 (0000ms, 0142ms total)
T4DA4 000:163 JLINK_GetDebugInfo(0x105 = JLINKARM_DEBUG_INFO_DWT_ADDR_INDEX) -- Value=0xE0001000  returns 0x00 (0000ms, 0142ms total)
T4DA4 000:163 JLINK_GetDebugInfo(0x106 = JLINKARM_DEBUG_INFO_FPB_ADDR_INDEX) -- Value=0xE0002000  returns 0x00 (0000ms, 0142ms total)
T4DA4 000:163 JLINK_GetDebugInfo(0x107 = JLINKARM_DEBUG_INFO_NVIC_ADDR_INDEX) -- Value=0xE000E000  returns 0x00 (0000ms, 0142ms total)
T4DA4 000:163 JLINK_GetDebugInfo(0x10C = JLINKARM_DEBUG_INFO_DBG_ADDR_INDEX) -- Value=0xE000EDF0  returns 0x00 (0000ms, 0142ms total)
T4DA4 000:163 JLINK_ReadMemU32(0xE000EF40, 0x0001 Items, ...) -- CPU_ReadMem(4 bytes @ 0xE000EF40) - Data: 21 00 11 10  returns 0x01 (0000ms, 0142ms total)
T4DA4 000:163 JLINK_ReadMemU32(0xE000EF44, 0x0001 Items, ...) -- CPU_ReadMem(4 bytes @ 0xE000EF44) - Data: 11 00 00 11  returns 0x01 (0001ms, 0143ms total)
T4DA4 000:164 JLINK_ReadMemU32(0xE000ED00, 0x0001 Items, ...) -- CPU_ReadMem(4 bytes @ 0xE000ED00) - Data: 41 C2 0F 41  returns 0x01 (0000ms, 0143ms total)
T4DA4 000:164 JLINK_GetDebugInfo(0x10F = JLINKARM_DEBUG_INFO_HAS_CORTEX_M_SECURITY_EXT_INDEX) -- Value=0x00000000  returns 0x00 (0000ms, 0143ms total)
T4DA4 000:164 JLINK_SetResetType(JLINKARM_CM3_RESET_TYPE_NORMAL)  returns JLINKARM_CM3_RESET_TYPE_NORMAL (0000ms, 0143ms total)
T4DA4 000:164 JLINK_Reset() -- CPU is running -- CPU_WriteMem(4 bytes @ 0xE000EDF0) -- CPU is running -- CPU_WriteMem(4 bytes @ 0xE000EDFC) >0x35 TIF>Setting AIRCR.SYSRESETREQ -- CPU is running -- CPU_WriteMem(4 bytes @ 0xE000ED0C) >0x0D TIF> >0x28 TIF> -- CPU_ReadMem(4 bytes @ 0xE000ED0C) -- CPU_ReadMem(4 bytes @ 0xE000EDF0) -- CPU_ReadMem(4 bytes @ 0xE000EDF0) -- CPU_ReadMem(4 bytes @ 0xE000EDF0) -- CPU is running -- CPU_WriteMem(4 bytes @ 0xE000EDF0) -- CPU is running
 -- CPU_WriteMem(4 bytes @ 0xE000EDFC) -- CPU_ReadMem(4 bytes @ 0xE000EDF0) -- CPU_WriteMem(4 bytes @ 0xE0002000) -- CPU_ReadMem(4 bytes @ 0xE000EDFC) -- CPU_ReadMem(4 bytes @ 0xE0001000) (0071ms, 0214ms total)
T4DA4 000:235 JLINK_Halt()  returns 0x00 (0000ms, 0214ms total)
T4DA4 000:235 JLINK_ReadMemU32(0xE000EDF0, 0x0001 Items, ...) -- CPU_ReadMem(4 bytes @ 0xE000EDF0) - Data: 03 00 03 00  returns 0x01 (0001ms, 0215ms total)
T4DA4 000:236 JLINK_WriteU32(0xE000EDF0, 0xA05F0003) -- CPU_WriteMem(4 bytes @ 0xE000EDF0)  returns 0x00 (0001ms, 0216ms total)
T4DA4 000:237 JLINK_WriteU32(0xE000EDFC, 0x01000000) -- CPU_WriteMem(4 bytes @ 0xE000EDFC)  returns 0x00 (0000ms, 0216ms total)
T4DA4 000:246 JLINK_GetHWStatus(...)  returns 0x00 (0000ms, 0216ms total)
T4DA4 000:249 JLINK_GetNumBPUnits(Type = 0xFFFFFF00)  returns 0x06 (0000ms, 0216ms total)
T4DA4 000:249 JLINK_GetNumBPUnits(Type = 0xF0)  returns 0x2000 (0000ms, 0216ms total)
T4DA4 000:249 JLINK_GetNumWPUnits()  returns 0x04 (0000ms, 0216ms total)
T4DA4 000:253 JLINK_GetSpeed()  returns 0xFA0 (0000ms, 0216ms total)
T4DA4 000:255 JLINK_ReadMemU32(0xE000E004, 0x0001 Items, ...) -- CPU_ReadMem(4 bytes @ 0xE000E004) - Data: 02 00 00 00  returns 0x01 (0001ms, 0217ms total)
T4DA4 000:256 JLINK_ReadMemU32(0xE000E004, 0x0001 Items, ...) -- CPU_ReadMem(4 bytes @ 0xE000E004) - Data: 02 00 00 00  returns 0x01 (0000ms, 0217ms total)
T4DA4 000:256 JLINK_WriteMemEx(0xE0001000, 0x001C Bytes, ..., Flags = 0x02000004) - Data: 01 00 00 00 00 00 00 00 00 00 00 00 00 00 00 00 ... -- CPU_WriteMem(28 bytes @ 0xE0001000)  returns 0x1C (0002ms, 0219ms total)
T4DA4 000:258 JLINK_Halt()  returns 0x00 (0000ms, 0219ms total)
T4DA4 000:258 JLINK_IsHalted()  returns TRUE (0000ms, 0219ms total)
T4DA4 000:261 JLINK_WriteMem(0x20000000, 0x0180 Bytes, ...) - Data: 00 BE 0A E0 0D 78 2D 06 68 40 08 24 40 00 00 D3 ... -- CPU_WriteMem(384 bytes @ 0x20000000)  returns 0x180 (0006ms, 0225ms total)
T4DA4 000:267 JLINK_WriteReg(R0, 0x08000000)  returns 0x00 (0000ms, 0225ms total)
T4DA4 000:267 JLINK_WriteReg(R1, 0x00B71B00)  returns 0x00 (0000ms, 0225ms total)
T4DA4 000:267 JLINK_WriteReg(R2, 0x00000001)  returns 0x00 (0000ms, 0225ms total)
T4DA4 000:267 JLINK_WriteReg(R3, 0x00000000)  returns 0x00 (0000ms, 0225ms total)
T4DA4 000:267 JLINK_WriteReg(R4, 0x00000000)  returns 0x00 (0000ms, 0225ms total)
T4DA4 000:267 JLINK_WriteReg(R5, 0x00000000)  returns 0x00 (0000ms, 0225ms total)
T4DA4 000:267 JLINK_WriteReg(R6, 0x00000000)  returns 0x00 (0000ms, 0225ms total)
T4DA4 000:267 JLINK_WriteReg(R7, 0x00000000)  returns 0x00 (0000ms, 0225ms total)
T4DA4 000:267 JLINK_WriteReg(R8, 0x00000000)  returns 0x00 (0000ms, 0225ms total)
T4DA4 000:267 JLINK_WriteReg(R9, 0x2000017C)  returns 0x00 (0000ms, 0225ms total)
T4DA4 000:267 JLINK_WriteReg(R10, 0x00000000)  returns 0x00 (0000ms, 0225ms total)
T4DA4 000:267 JLINK_WriteReg(R11, 0x00000000)  returns 0x00 (0000ms, 0225ms total)
T4DA4 000:267 JLINK_WriteReg(R12, 0x00000000)  returns 0x00 (0000ms, 0225ms total)
T4DA4 000:267 JLINK_WriteReg(R13 (SP), 0x20001000)  returns 0x00 (0000ms, 0225ms total)
T4DA4 000:267 JLINK_WriteReg(R14, 0x20000001)  returns 0x00 (0000ms, 0225ms total)
T4DA4 000:267 JLINK_WriteReg(R15 (PC), 0x20000054)  returns 0x00 (0000ms, 0225ms total)
T4DA4 000:267 JLINK_WriteReg(XPSR, 0x01000000)  returns 0x00 (0000ms, 0225ms total)
T4DA4 000:267 JLINK_WriteReg(MSP, 0x20001000)  returns 0x00 (0000ms, 0225ms total)
T4DA4 000:267 JLINK_WriteReg(PSP, 0x20001000)  returns 0x00 (0000ms, 0225ms total)
T4DA4 000:267 JLINK_WriteReg(CFBP, 0x00000000)  returns 0x00 (0000ms, 0225ms total)
T4DA4 000:267 JLINK_SetBPEx(Addr = 0x20000000, Type = 0xFFFFFFF2) -- CPU_ReadMem(2 bytes @ 0x20000000)  returns 0x00000001 (0000ms, 0225ms total)
T4DA4 000:267 JLINK_Go() -- CPU_WriteMem(2 bytes @ 0x20000000) -- CPU_ReadMem(4 bytes @ 0xE0001000) -- CPU_WriteMem(4 bytes @ 0xE0002008) -- CPU_WriteMem(4 bytes @ 0xE000200C) -- CPU_WriteMem(4 bytes @ 0xE0002010) -- CPU_WriteMem(4 bytes @ 0xE0002014) -- CPU_WriteMem(4 bytes @ 0xE0002018) -- CPU_WriteMem(4 bytes @ 0xE000201C) -- CPU_WriteMem(4 bytes @ 0xE0001004) (0006ms, 0231ms total)
T4DA4 000:273 JLINK_IsHalted() -- CPU_ReadMem(2 bytes @ 0x20000000)  returns TRUE (0004ms, 0235ms total)
T4DA4 000:277 JLINK_ReadReg(R15 (PC))  returns 0x20000000 (0000ms, 0231ms total)
T4DA4 000:277 JLINK_ClrBPEx(BPHandle = 0x00000001)  returns 0x00 (0000ms, 0231ms total)
T4DA4 000:277 JLINK_ReadReg(R0)  returns 0x00000000 (0000ms, 0231ms total)
T4DA4 000:277 JLINK_WriteReg(R0, 0x08000000)  returns 0x00 (0000ms, 0231ms total)
T4DA4 000:277 JLINK_WriteReg(R1, 0x00004000)  returns 0x00 (0000ms, 0231ms total)
T4DA4 000:277 JLINK_WriteReg(R2, 0x000000FF)  returns 0x00 (0000ms, 0231ms total)
T4DA4 000:277 JLINK_WriteReg(R3, 0x00000000)  returns 0x00 (0000ms, 0231ms total)
T4DA4 000:277 JLINK_WriteReg(R4, 0x00000000)  returns 0x00 (0000ms, 0231ms total)
T4DA4 000:277 JLINK_WriteReg(R5, 0x00000000)  returns 0x00 (0000ms, 0231ms total)
T4DA4 000:277 JLINK_WriteReg(R6, 0x00000000)  returns 0x00 (0000ms, 0231ms total)
T4DA4 000:277 JLINK_WriteReg(R7, 0x00000000)  returns 0x00 (0000ms, 0231ms total)
T4DA4 000:277 JLINK_WriteReg(R8, 0x00000000)  returns 0x00 (0000ms, 0231ms total)
T4DA4 000:277 JLINK_WriteReg(R9, 0x2000017C)  returns 0x00 (0000ms, 0231ms total)
T4DA4 000:277 JLINK_WriteReg(R10, 0x00000000)  returns 0x00 (0000ms, 0231ms total)
T4DA4 000:277 JLINK_WriteReg(R11, 0x00000000)  returns 0x00 (0000ms, 0231ms total)
T4DA4 000:277 JLINK_WriteReg(R12, 0x00000000)  returns 0x00 (0000ms, 0231ms total)
T4DA4 000:277 JLINK_WriteReg(R13 (SP), 0x20001000)  returns 0x00 (0000ms, 0231ms total)
T4DA4 000:277 JLINK_WriteReg(R14, 0x20000001)  returns 0x00 (0000ms, 0231ms total)
T4DA4 000:277 JLINK_WriteReg(R15 (PC), 0x20000020)  returns 0x00 (0000ms, 0231ms total)
T4DA4 000:277 JLINK_WriteReg(XPSR, 0x01000000)  returns 0x00 (0000ms, 0231ms total)
T4DA4 000:277 JLINK_WriteReg(MSP, 0x20001000)  returns 0x00 (0000ms, 0231ms total)
T4DA4 000:277 JLINK_WriteReg(PSP, 0x20001000)  returns 0x00 (0000ms, 0231ms total)
T4DA4 000:277 JLINK_WriteReg(CFBP, 0x00000000)  returns 0x00 (0000ms, 0231ms total)
T4DA4 000:277 JLINK_SetBPEx(Addr = 0x20000000, Type = 0xFFFFFFF2)  returns 0x00000002 (0000ms, 0231ms total)
T4DA4 000:277 JLINK_Go() -- CPU_ReadMem(4 bytes @ 0xE0001000) (0002ms, 0233ms total)
T4DA4 000:279 JLINK_IsHalted() -- CPU_ReadMem(2 bytes @ 0x20000000)  returns TRUE (0004ms, 0237ms total)
T4DA4 000:283 JLINK_ReadReg(R15 (PC))  returns 0x20000000 (0000ms, 0233ms total)
T4DA4 000:283 JLINK_ClrBPEx(BPHandle = 0x00000002)  returns 0x00 (0000ms, 0233ms total)
T4DA4 000:283 JLINK_ReadReg(R0)  returns 0x00000001 (0000ms, 0233ms total)
T4DA4 000:283 JLINK_WriteReg(R0, 0x08000000)  returns 0x00 (0000ms, 0233ms total)
T4DA4 000:283 JLINK_WriteReg(R1, 0x00004000)  returns 0x00 (0000ms, 0233ms total)
T4DA4 000:283 JLINK_WriteReg(R2, 0x000000FF)  returns 0x00 (0000ms, 0233ms total)
T4DA4 000:283 JLINK_WriteReg(R3, 0x00000000)  returns 0x00 (0000ms, 0233ms total)
T4DA4 000:283 JLINK_WriteReg(R4, 0x00000000)  returns 0x00 (0000ms, 0233ms total)
T4DA4 000:283 JLINK_WriteReg(R5, 0x00000000)  returns 0x00 (0000ms, 0233ms total)
T4DA4 000:283 JLINK_WriteReg(R6, 0x00000000)  returns 0x00 (0000ms, 0233ms total)
T4DA4 000:283 JLINK_WriteReg(R7, 0x00000000)  returns 0x00 (0000ms, 0233ms total)
T4DA4 000:283 JLINK_WriteReg(R8, 0x00000000)  returns 0x00 (0000ms, 0233ms total)
T4DA4 000:283 JLINK_WriteReg(R9, 0x2000017C)  returns 0x00 (0000ms, 0233ms total)
T4DA4 000:283 JLINK_WriteReg(R10, 0x00000000)  returns 0x00 (0000ms, 0233ms total)
T4DA4 000:283 JLINK_WriteReg(R11, 0x00000000)  returns 0x00 (0000ms, 0233ms total)
T4DA4 000:283 JLINK_WriteReg(R12, 0x00000000)  returns 0x00 (0000ms, 0233ms total)
T4DA4 000:283 JLINK_WriteReg(R13 (SP), 0x20001000)  returns 0x00 (0000ms, 0233ms total)
T4DA4 000:283 JLINK_WriteReg(R14, 0x20000001)  returns 0x00 (0000ms, 0233ms total)
T4DA4 000:283 JLINK_WriteReg(R15 (PC), 0x200000BC)  returns 0x00 (0000ms, 0233ms total)
T4DA4 000:283 JLINK_WriteReg(XPSR, 0x01000000)  returns 0x00 (0000ms, 0233ms total)
T4DA4 000:283 JLINK_WriteReg(MSP, 0x20001000)  returns 0x00 (0000ms, 0233ms total)
T4DA4 000:283 JLINK_WriteReg(PSP, 0x20001000)  returns 0x00 (0000ms, 0233ms total)
T4DA4 000:283 JLINK_WriteReg(CFBP, 0x00000000)  returns 0x00 (0000ms, 0233ms total)
T4DA4 000:283 JLINK_SetBPEx(Addr = 0x20000000, Type = 0xFFFFFFF2)  returns 0x00000003 (0000ms, 0233ms total)
T4DA4 000:283 JLINK_Go() -- CPU_ReadMem(4 bytes @ 0xE0001000) (0002ms, 0235ms total)
T4DA4 000:285 JLINK_IsHalted()  returns FALSE (0001ms, 0236ms total)
T4DA4 000:312 JLINK_IsHalted()  returns FALSE (0001ms, 0236ms total)
T4DA4 000:315 JLINK_IsHalted()  returns FALSE (0000ms, 0235ms total)
T4DA4 000:317 JLINK_IsHalted()  returns FALSE (0000ms, 0235ms total)
T4DA4 000:319 JLINK_IsHalted()  returns FALSE (0000ms, 0235ms total)
T4DA4 000:321 JLINK_IsHalted()  returns FALSE (0000ms, 0235ms total)
T4DA4 000:324 JLINK_IsHalted()  returns FALSE (0000ms, 0235ms total)
T4DA4 000:326 JLINK_IsHalted()  returns FALSE (0000ms, 0235ms total)
T4DA4 000:328 JLINK_IsHalted()  returns FALSE (0000ms, 0235ms total)
T4DA4 000:330 JLINK_IsHalted()  returns FALSE (0000ms, 0235ms total)
T4DA4 000:333 JLINK_IsHalted()  returns FALSE (0000ms, 0235ms total)
T4DA4 000:335 JLINK_IsHalted()  returns FALSE (0000ms, 0235ms total)
T4DA4 000:338 JLINK_IsHalted()  returns FALSE (0000ms, 0235ms total)
T4DA4 000:342 JLINK_IsHalted()  returns FALSE (0000ms, 0235ms total)
T4DA4 000:345 JLINK_IsHalted()  returns FALSE (0000ms, 0235ms total)
T4DA4 000:347 JLINK_IsHalted()  returns FALSE (0000ms, 0235ms total)
T4DA4 000:350 JLINK_IsHalted()  returns FALSE (0000ms, 0235ms total)
T4DA4 000:353 JLINK_IsHalted()  returns FALSE (0000ms, 0235ms total)
T4DA4 000:355 JLINK_IsHalted()  returns FALSE (0000ms, 0235ms total)
T4DA4 000:358 JLINK_IsHalted()  returns FALSE (0000ms, 0235ms total)
T4DA4 000:361 JLINK_IsHalted()  returns FALSE (0000ms, 0235ms total)
T4DA4 000:363 JLINK_IsHalted()  returns FALSE (0000ms, 0235ms total)
T4DA4 000:366 JLINK_IsHalted()  returns FALSE (0000ms, 0235ms total)
T4DA4 000:369 JLINK_IsHalted()  returns FALSE (0000ms, 0235ms total)
T4DA4 000:372 JLINK_IsHalted()  returns FALSE (0000ms, 0235ms total)
T4DA4 000:374 JLINK_IsHalted()  returns FALSE (0000ms, 0235ms total)
T4DA4 000:378 JLINK_IsHalted()  returns FALSE (0000ms, 0235ms total)
T4DA4 000:381 JLINK_IsHalted()  returns FALSE (0000ms, 0235ms total)
T4DA4 000:383 JLINK_IsHalted()  returns FALSE (0000ms, 0235ms total)
T4DA4 000:386 JLINK_IsHalted()  returns FALSE (0000ms, 0235ms total)
T4DA4 000:388 JLINK_IsHalted()  returns FALSE (0000ms, 0235ms total)
T4DA4 000:390 JLINK_IsHalted()  returns FALSE (0000ms, 0235ms total)
T4DA4 000:393 JLINK_IsHalted()  returns FALSE (0000ms, 0235ms total)
T4DA4 000:395 JLINK_IsHalted()  returns FALSE (0000ms, 0235ms total)
T4DA4 000:398 JLINK_IsHalted()  returns FALSE (0000ms, 0235ms total)
T4DA4 000:400 JLINK_IsHalted()  returns FALSE (0000ms, 0235ms total)
T4DA4 000:402 JLINK_IsHalted()  returns FALSE (0000ms, 0235ms total)
T4DA4 000:406 JLINK_IsHalted()  returns FALSE (0000ms, 0235ms total)
T4DA4 000:409 JLINK_IsHalted()  returns FALSE (0000ms, 0235ms total)
T4DA4 000:412 JLINK_IsHalted()  returns FALSE (0000ms, 0235ms total)
T4DA4 000:414 JLINK_IsHalted()  returns FALSE (0000ms, 0235ms total)
T4DA4 000:417 JLINK_IsHalted()  returns FALSE (0000ms, 0235ms total)
T4DA4 000:420 JLINK_IsHalted()  returns FALSE (0000ms, 0235ms total)
T4DA4 000:422 JLINK_IsHalted()  returns FALSE (0000ms, 0235ms total)
T4DA4 000:425 JLINK_IsHalted()  returns FALSE (0001ms, 0236ms total)
T4DA4 000:428 JLINK_IsHalted()  returns FALSE (0000ms, 0235ms total)
T4DA4 000:430 JLINK_IsHalted()  returns FALSE (0000ms, 0235ms total)
T4DA4 000:433 JLINK_IsHalted()  returns FALSE (0000ms, 0235ms total)
T4DA4 000:436 JLINK_IsHalted()  returns FALSE (0000ms, 0235ms total)
T4DA4 000:438 JLINK_IsHalted()  returns FALSE (0000ms, 0235ms total)
T4DA4 000:441 JLINK_IsHalted()  returns FALSE (0000ms, 0235ms total)
T4DA4 000:444 JLINK_IsHalted()  returns FALSE (0000ms, 0235ms total)
T4DA4 000:446 JLINK_IsHalted()  returns FALSE (0001ms, 0236ms total)
T4DA4 000:449 JLINK_IsHalted()  returns FALSE (0000ms, 0235ms total)
T4DA4 000:451 JLINK_IsHalted()  returns FALSE (0000ms, 0235ms total)
T4DA4 000:454 JLINK_IsHalted()  returns FALSE (0000ms, 0235ms total)
T4DA4 000:457 JLINK_IsHalted()  returns FALSE (0000ms, 0235ms total)
T4DA4 000:459 JLINK_IsHalted()  returns FALSE (0000ms, 0235ms total)
T4DA4 000:462 JLINK_IsHalted()  returns FALSE (0000ms, 0235ms total)
T4DA4 000:464 JLINK_IsHalted()  returns FALSE (0000ms, 0235ms total)
T4DA4 000:466 JLINK_IsHalted()  returns FALSE (0000ms, 0235ms total)
T4DA4 000:469 JLINK_IsHalted()  returns FALSE (0001ms, 0236ms total)
T4DA4 000:472 JLINK_IsHalted()  returns FALSE (0000ms, 0235ms total)
T4DA4 000:474 JLINK_IsHalted()  returns FALSE (0000ms, 0235ms total)
T4DA4 000:477 JLINK_IsHalted()  returns FALSE (0000ms, 0235ms total)
T4DA4 000:480 JLINK_IsHalted()  returns FALSE (0000ms, 0235ms total)
T4DA4 000:482 JLINK_IsHalted()  returns FALSE (0000ms, 0235ms total)
T4DA4 000:485 JLINK_IsHalted()  returns FALSE (0000ms, 0235ms total)
T4DA4 000:487 JLINK_IsHalted()  returns FALSE (0000ms, 0235ms total)
T4DA4 000:490 JLINK_IsHalted()  returns FALSE (0000ms, 0235ms total)
T4DA4 000:493 JLINK_IsHalted()  returns FALSE (0000ms, 0235ms total)
T4DA4 000:495 JLINK_IsHalted()  returns FALSE (0000ms, 0235ms total)
T4DA4 000:498 JLINK_IsHalted()  returns FALSE (0000ms, 0235ms total)
T4DA4 000:500 JLINK_IsHalted()  returns FALSE (0000ms, 0235ms total)
T4DA4 000:502 JLINK_IsHalted()  returns FALSE (0000ms, 0235ms total)
T4DA4 000:506 JLINK_IsHalted()  returns FALSE (0000ms, 0235ms total)
T4DA4 000:509 JLINK_IsHalted()  returns FALSE (0000ms, 0235ms total)
T4DA4 000:513 JLINK_IsHalted()  returns FALSE (0000ms, 0235ms total)
T4DA4 000:515 JLINK_IsHalted()  returns FALSE (0000ms, 0235ms total)
T4DA4 000:517 JLINK_IsHalted()  returns FALSE (0000ms, 0235ms total)
T4DA4 000:520 JLINK_IsHalted()  returns FALSE (0001ms, 0236ms total)
T4DA4 000:523 JLINK_IsHalted()  returns FALSE (0000ms, 0235ms total)
T4DA4 000:525 JLINK_IsHalted()  returns FALSE (0000ms, 0235ms total)
T4DA4 000:527 JLINK_IsHalted()  returns FALSE (0000ms, 0235ms total)
T4DA4 000:530 JLINK_IsHalted()  returns FALSE (0000ms, 0235ms total)
T4DA4 000:532 JLINK_IsHalted()  returns FALSE (0000ms, 0235ms total)
T4DA4 000:533 JLINK_IsHalted()  returns FALSE (0000ms, 0235ms total)
T4DA4 000:535 JLINK_IsHalted()  returns FALSE (0000ms, 0235ms total)
T4DA4 000:538 JLINK_IsHalted()  returns FALSE (0000ms, 0235ms total)
T4DA4 000:540 JLINK_IsHalted()  returns FALSE (0000ms, 0235ms total)
T4DA4 000:542 JLINK_IsHalted()  returns FALSE (0000ms, 0235ms total)
T4DA4 000:544 JLINK_IsHalted()  returns FALSE (0000ms, 0235ms total)
T4DA4 000:546 JLINK_IsHalted()  returns FALSE (0000ms, 0235ms total)
T4DA4 000:549 JLINK_IsHalted()  returns FALSE (0000ms, 0235ms total)
T4DA4 000:551 JLINK_IsHalted()  returns FALSE (0000ms, 0235ms total)
T4DA4 000:553 JLINK_IsHalted()  returns FALSE (0000ms, 0235ms total)
T4DA4 000:555 JLINK_IsHalted()  returns FALSE (0000ms, 0235ms total)
T4DA4 000:557 JLINK_IsHalted()  returns FALSE (0000ms, 0235ms total)
T4DA4 000:559 JLINK_IsHalted()  returns FALSE (0000ms, 0235ms total)
T4DA4 000:561 JLINK_IsHalted()  returns FALSE (0000ms, 0235ms total)
T4DA4 000:563 JLINK_IsHalted()  returns FALSE (0000ms, 0235ms total)
T4DA4 000:565 JLINK_IsHalted()  returns FALSE (0000ms, 0235ms total)
T4DA4 000:567 JLINK_IsHalted()  returns FALSE (0000ms, 0235ms total)
T4DA4 000:569 JLINK_IsHalted()  returns FALSE (0000ms, 0235ms total)
T4DA4 000:571 JLINK_IsHalted()  returns FALSE (0000ms, 0235ms total)
T4DA4 000:574 JLINK_IsHalted()  returns FALSE (0000ms, 0235ms total)
T4DA4 000:576 JLINK_IsHalted()  returns FALSE (0000ms, 0235ms total)
T4DA4 000:578 JLINK_IsHalted()  returns FALSE (0000ms, 0235ms total)
T4DA4 000:581 JLINK_IsHalted()  returns FALSE (0000ms, 0235ms total)
T4DA4 000:583 JLINK_IsHalted()  returns FALSE (0000ms, 0235ms total)
T4DA4 000:585 JLINK_IsHalted()  returns FALSE (0000ms, 0235ms total)
T4DA4 000:587 JLINK_IsHalted()  returns FALSE (0000ms, 0235ms total)
T4DA4 000:589 JLINK_IsHalted()  returns FALSE (0000ms, 0235ms total)
T4DA4 000:591 JLINK_IsHalted()  returns FALSE (0000ms, 0235ms total)
T4DA4 000:593 JLINK_IsHalted()  returns FALSE (0000ms, 0235ms total)
T4DA4 000:595 JLINK_IsHalted()  returns FALSE (0000ms, 0235ms total)
T4DA4 000:598 JLINK_IsHalted()  returns FALSE (0000ms, 0235ms total)
T4DA4 000:601 JLINK_IsHalted()  returns FALSE (0000ms, 0235ms total)
T4DA4 000:603 JLINK_IsHalted()  returns FALSE (0001ms, 0236ms total)
T4DA4 000:605 JLINK_IsHalted()  returns FALSE (0000ms, 0235ms total)
T4DA4 000:607 JLINK_IsHalted()  returns FALSE (0000ms, 0235ms total)
T4DA4 000:609 JLINK_IsHalted()  returns FALSE (0000ms, 0235ms total)
T4DA4 000:611 JLINK_IsHalted()  returns FALSE (0000ms, 0235ms total)
T4DA4 000:613 JLINK_IsHalted()  returns FALSE (0000ms, 0235ms total)
T4DA4 000:615 JLINK_IsHalted()  returns FALSE (0000ms, 0235ms total)
T4DA4 000:617 JLINK_IsHalted()  returns FALSE (0000ms, 0235ms total)
T4DA4 000:619 JLINK_IsHalted()  returns FALSE (0000ms, 0235ms total)
T4DA4 000:621 JLINK_IsHalted()  returns FALSE (0001ms, 0236ms total)
T4DA4 000:624 JLINK_IsHalted()  returns FALSE (0000ms, 0235ms total)
T4DA4 000:626 JLINK_IsHalted()  returns FALSE (0000ms, 0235ms total)
T4DA4 000:628 JLINK_IsHalted()  returns FALSE (0000ms, 0235ms total)
T4DA4 000:630 JLINK_IsHalted()  returns FALSE (0000ms, 0235ms total)
T4DA4 000:632 JLINK_IsHalted()  returns FALSE (0000ms, 0235ms total)
T4DA4 000:634 JLINK_IsHalted()  returns FALSE (0000ms, 0235ms total)
T4DA4 000:636 JLINK_IsHalted()  returns FALSE (0000ms, 0235ms total)
T4DA4 000:638 JLINK_IsHalted()  returns FALSE (0000ms, 0235ms total)
T4DA4 000:640 JLINK_IsHalted()  returns FALSE (0000ms, 0235ms total)
T4DA4 000:643 JLINK_IsHalted()  returns FALSE (0000ms, 0235ms total)
T4DA4 000:645 JLINK_IsHalted()  returns FALSE (0000ms, 0235ms total)
T4DA4 000:647 JLINK_IsHalted()  returns FALSE (0000ms, 0235ms total)
T4DA4 000:649 JLINK_IsHalted()  returns FALSE (0000ms, 0235ms total)
T4DA4 000:651 JLINK_IsHalted()  returns FALSE (0000ms, 0235ms total)
T4DA4 000:653 JLINK_IsHalted()  returns FALSE (0000ms, 0235ms total)
T4DA4 000:655 JLINK_IsHalted()  returns FALSE (0000ms, 0235ms total)
T4DA4 000:657 JLINK_IsHalted()  returns FALSE (0000ms, 0235ms total)
T4DA4 000:659 JLINK_IsHalted()  returns FALSE (0000ms, 0235ms total)
T4DA4 000:661 JLINK_IsHalted()  returns FALSE (0000ms, 0235ms total)
T4DA4 000:663 JLINK_IsHalted()  returns FALSE (0000ms, 0235ms total)
T4DA4 000:665 JLINK_IsHalted()  returns FALSE (0000ms, 0235ms total)
T4DA4 000:667 JLINK_IsHalted()  returns FALSE (0000ms, 0235ms total)
T4DA4 000:669 JLINK_IsHalted()  returns FALSE (0000ms, 0235ms total)
T4DA4 000:671 JLINK_IsHalted()  returns FALSE (0000ms, 0235ms total)
T4DA4 000:673 JLINK_IsHalted()  returns FALSE (0001ms, 0236ms total)
T4DA4 000:676 JLINK_IsHalted() -- CPU_ReadMem(2 bytes @ 0x20000000)  returns TRUE (0003ms, 0238ms total)
T4DA4 000:679 JLINK_ReadReg(R15 (PC))  returns 0x20000000 (0000ms, 0235ms total)
T4DA4 000:679 JLINK_ClrBPEx(BPHandle = 0x00000003)  returns 0x00 (0000ms, 0235ms total)
T4DA4 000:679 JLINK_ReadReg(R0)  returns 0x00000000 (0000ms, 0235ms total)
T4DA4 000:679 JLINK_WriteReg(R0, 0x00000001)  returns 0x00 (0000ms, 0235ms total)
T4DA4 000:679 JLINK_WriteReg(R1, 0x00004000)  returns 0x00 (0000ms, 0235ms total)
T4DA4 000:679 JLINK_WriteReg(R2, 0x000000FF)  returns 0x00 (0000ms, 0235ms total)
T4DA4 000:679 JLINK_WriteReg(R3, 0x00000000)  returns 0x00 (0000ms, 0235ms total)
T4DA4 000:679 JLINK_WriteReg(R4, 0x00000000)  returns 0x00 (0000ms, 0235ms total)
T4DA4 000:679 JLINK_WriteReg(R5, 0x00000000)  returns 0x00 (0000ms, 0235ms total)
T4DA4 000:679 JLINK_WriteReg(R6, 0x00000000)  returns 0x00 (0000ms, 0235ms total)
T4DA4 000:679 JLINK_WriteReg(R7, 0x00000000)  returns 0x00 (0000ms, 0235ms total)
T4DA4 000:679 JLINK_WriteReg(R8, 0x00000000)  returns 0x00 (0000ms, 0235ms total)
T4DA4 000:679 JLINK_WriteReg(R9, 0x2000017C)  returns 0x00 (0000ms, 0235ms total)
T4DA4 000:679 JLINK_WriteReg(R10, 0x00000000)  returns 0x00 (0000ms, 0235ms total)
T4DA4 000:679 JLINK_WriteReg(R11, 0x00000000)  returns 0x00 (0000ms, 0235ms total)
T4DA4 000:679 JLINK_WriteReg(R12, 0x00000000)  returns 0x00 (0000ms, 0235ms total)
T4DA4 000:679 JLINK_WriteReg(R13 (SP), 0x20001000)  returns 0x00 (0000ms, 0235ms total)
T4DA4 000:679 JLINK_WriteReg(R14, 0x20000001)  returns 0x00 (0000ms, 0235ms total)
T4DA4 000:679 JLINK_WriteReg(R15 (PC), 0x20000082)  returns 0x00 (0000ms, 0235ms total)
T4DA4 000:679 JLINK_WriteReg(XPSR, 0x01000000)  returns 0x00 (0000ms, 0235ms total)
T4DA4 000:679 JLINK_WriteReg(MSP, 0x20001000)  returns 0x00 (0000ms, 0235ms total)
T4DA4 000:679 JLINK_WriteReg(PSP, 0x20001000)  returns 0x00 (0000ms, 0235ms total)
T4DA4 000:679 JLINK_WriteReg(CFBP, 0x00000000)  returns 0x00 (0001ms, 0236ms total)
T4DA4 000:680 JLINK_SetBPEx(Addr = 0x20000000, Type = 0xFFFFFFF2)  returns 0x00000004 (0000ms, 0236ms total)
T4DA4 000:680 JLINK_Go() -- CPU_ReadMem(4 bytes @ 0xE0001000) (0002ms, 0238ms total)
T4DA4 000:682 JLINK_IsHalted() -- CPU_ReadMem(2 bytes @ 0x20000000)  returns TRUE (0004ms, 0242ms total)
T4DA4 000:686 JLINK_ReadReg(R15 (PC))  returns 0x20000000 (0000ms, 0238ms total)
T4DA4 000:686 JLINK_ClrBPEx(BPHandle = 0x00000004)  returns 0x00 (0000ms, 0238ms total)
T4DA4 000:686 JLINK_ReadReg(R0)  returns 0x00000000 (0000ms, 0238ms total)
T4DA4 000:745 JLINK_WriteMem(0x20000000, 0x0180 Bytes, ...) - Data: 00 BE 0A E0 0D 78 2D 06 68 40 08 24 40 00 00 D3 ... -- CPU_WriteMem(384 bytes @ 0x20000000)  returns 0x180 (0005ms, 0243ms total)
T4DA4 000:750 JLINK_WriteReg(R0, 0x08000000)  returns 0x00 (0000ms, 0243ms total)
T4DA4 000:750 JLINK_WriteReg(R1, 0x00B71B00)  returns 0x00 (0000ms, 0243ms total)
T4DA4 000:750 JLINK_WriteReg(R2, 0x00000002)  returns 0x00 (0000ms, 0243ms total)
T4DA4 000:750 JLINK_WriteReg(R3, 0x00000000)  returns 0x00 (0000ms, 0243ms total)
T4DA4 000:750 JLINK_WriteReg(R4, 0x00000000)  returns 0x00 (0000ms, 0243ms total)
T4DA4 000:750 JLINK_WriteReg(R5, 0x00000000)  returns 0x00 (0000ms, 0243ms total)
T4DA4 000:750 JLINK_WriteReg(R6, 0x00000000)  returns 0x00 (0000ms, 0243ms total)
T4DA4 000:750 JLINK_WriteReg(R7, 0x00000000)  returns 0x00 (0000ms, 0243ms total)
T4DA4 000:750 JLINK_WriteReg(R8, 0x00000000)  returns 0x00 (0000ms, 0243ms total)
T4DA4 000:750 JLINK_WriteReg(R9, 0x2000017C)  returns 0x00 (0000ms, 0243ms total)
T4DA4 000:750 JLINK_WriteReg(R10, 0x00000000)  returns 0x00 (0000ms, 0243ms total)
T4DA4 000:750 JLINK_WriteReg(R11, 0x00000000)  returns 0x00 (0000ms, 0243ms total)
T4DA4 000:750 JLINK_WriteReg(R12, 0x00000000)  returns 0x00 (0000ms, 0243ms total)
T4DA4 000:750 JLINK_WriteReg(R13 (SP), 0x20001000)  returns 0x00 (0000ms, 0243ms total)
T4DA4 000:750 JLINK_WriteReg(R14, 0x20000001)  returns 0x00 (0000ms, 0243ms total)
T4DA4 000:750 JLINK_WriteReg(R15 (PC), 0x20000054)  returns 0x00 (0000ms, 0243ms total)
T4DA4 000:750 JLINK_WriteReg(XPSR, 0x01000000)  returns 0x00 (0000ms, 0243ms total)
T4DA4 000:750 JLINK_WriteReg(MSP, 0x20001000)  returns 0x00 (0000ms, 0243ms total)
T4DA4 000:750 JLINK_WriteReg(PSP, 0x20001000)  returns 0x00 (0000ms, 0243ms total)
T4DA4 000:750 JLINK_WriteReg(CFBP, 0x00000000)  returns 0x00 (0000ms, 0243ms total)
T4DA4 000:750 JLINK_SetBPEx(Addr = 0x20000000, Type = 0xFFFFFFF2) -- CPU_ReadMem(2 bytes @ 0x20000000)  returns 0x00000005 (0000ms, 0243ms total)
T4DA4 000:750 JLINK_Go() -- CPU_WriteMem(2 bytes @ 0x20000000) -- CPU_ReadMem(4 bytes @ 0xE0001000) (0003ms, 0246ms total)
T4DA4 000:753 JLINK_IsHalted() -- CPU_ReadMem(2 bytes @ 0x20000000)  returns TRUE (0005ms, 0251ms total)
T4DA4 000:758 JLINK_ReadReg(R15 (PC))  returns 0x20000000 (0000ms, 0246ms total)
T4DA4 000:758 JLINK_ClrBPEx(BPHandle = 0x00000005)  returns 0x00 (0000ms, 0246ms total)
T4DA4 000:758 JLINK_ReadReg(R0)  returns 0x00000000 (0000ms, 0246ms total)
T4DA4 000:758 JLINK_WriteMem(0x20000180, 0x0280 Bytes, ...) - Data: D0 07 00 20 9D 01 00 08 9F 16 00 08 97 16 00 08 ... -- CPU_WriteMem(640 bytes @ 0x20000180)  returns 0x280 (0007ms, 0253ms total)
T4DA4 000:765 JLINK_WriteMem(0x20000400, 0x0180 Bytes, ...) - Data: 70 47 70 B5 06 46 02 F0 8F FC 04 68 05 46 0A 22 ... -- CPU_WriteMem(384 bytes @ 0x20000400)  returns 0x180 (0005ms, 0258ms total)
T4DA4 000:770 JLINK_WriteReg(R0, 0x08000000)  returns 0x00 (0000ms, 0258ms total)
T4DA4 000:770 JLINK_WriteReg(R1, 0x00000400)  returns 0x00 (0000ms, 0258ms total)
T4DA4 000:770 JLINK_WriteReg(R2, 0x20000180)  returns 0x00 (0000ms, 0258ms total)
T4DA4 000:770 JLINK_WriteReg(R3, 0x00000000)  returns 0x00 (0000ms, 0258ms total)
T4DA4 000:770 JLINK_WriteReg(R4, 0x00000000)  returns 0x00 (0000ms, 0258ms total)
T4DA4 000:770 JLINK_WriteReg(R5, 0x00000000)  returns 0x00 (0000ms, 0258ms total)
T4DA4 000:771 JLINK_WriteReg(R6, 0x00000000)  returns 0x00 (0000ms, 0259ms total)
T4DA4 000:771 JLINK_WriteReg(R7, 0x00000000)  returns 0x00 (0000ms, 0259ms total)
T4DA4 000:771 JLINK_WriteReg(R8, 0x00000000)  returns 0x00 (0000ms, 0259ms total)
T4DA4 000:771 JLINK_WriteReg(R9, 0x2000017C)  returns 0x00 (0000ms, 0259ms total)
T4DA4 000:771 JLINK_WriteReg(R10, 0x00000000)  returns 0x00 (0000ms, 0259ms total)
T4DA4 000:771 JLINK_WriteReg(R11, 0x00000000)  returns 0x00 (0000ms, 0259ms total)
T4DA4 000:771 JLINK_WriteReg(R12, 0x00000000)  returns 0x00 (0000ms, 0259ms total)
T4DA4 000:771 JLINK_WriteReg(R13 (SP), 0x20001000)  returns 0x00 (0000ms, 0259ms total)
T4DA4 000:771 JLINK_WriteReg(R14, 0x20000001)  returns 0x00 (0000ms, 0259ms total)
T4DA4 000:771 JLINK_WriteReg(R15 (PC), 0x20000108)  returns 0x00 (0000ms, 0259ms total)
T4DA4 000:771 JLINK_WriteReg(XPSR, 0x01000000)  returns 0x00 (0000ms, 0259ms total)
T4DA4 000:771 JLINK_WriteReg(MSP, 0x20001000)  returns 0x00 (0000ms, 0259ms total)
T4DA4 000:771 JLINK_WriteReg(PSP, 0x20001000)  returns 0x00 (0000ms, 0259ms total)
T4DA4 000:771 JLINK_WriteReg(CFBP, 0x00000000)  returns 0x00 (0000ms, 0259ms total)
T4DA4 000:771 JLINK_SetBPEx(Addr = 0x20000000, Type = 0xFFFFFFF2)  returns 0x00000006 (0000ms, 0259ms total)
T4DA4 000:771 JLINK_Go() -- CPU_ReadMem(4 bytes @ 0xE0001000) (0001ms, 0260ms total)
T4DA4 000:772 JLINK_IsHalted()  returns FALSE (0002ms, 0262ms total)
T4DA4 000:779 JLINK_IsHalted() -- CPU_ReadMem(2 bytes @ 0x20000000)  returns TRUE (0003ms, 0263ms total)
T4DA4 000:782 JLINK_ReadReg(R15 (PC))  returns 0x20000000 (0000ms, 0260ms total)
T4DA4 000:782 JLINK_ClrBPEx(BPHandle = 0x00000006)  returns 0x00 (0000ms, 0260ms total)
T4DA4 000:782 JLINK_ReadReg(R0)  returns 0x00000000 (0000ms, 0260ms total)
T4DA4 000:782 JLINK_WriteMem(0x20000180, 0x0280 Bytes, ...) - Data: 08 D0 08 1B 00 94 CD E9 01 04 32 46 69 46 04 A8 ... -- CPU_WriteMem(640 bytes @ 0x20000180)  returns 0x280 (0009ms, 0269ms total)
T4DA4 000:791 JLINK_WriteMem(0x20000400, 0x0180 Bytes, ...) - Data: A4 F2 F3 34 01 94 A0 FB 02 54 C1 F3 13 01 41 F4 ... -- CPU_WriteMem(384 bytes @ 0x20000400)  returns 0x180 (0004ms, 0273ms total)
T4DA4 000:795 JLINK_WriteReg(R0, 0x08000400)  returns 0x00 (0001ms, 0274ms total)
T4DA4 000:796 JLINK_WriteReg(R1, 0x00000400)  returns 0x00 (0000ms, 0274ms total)
T4DA4 000:796 JLINK_WriteReg(R2, 0x20000180)  returns 0x00 (0000ms, 0274ms total)
T4DA4 000:796 JLINK_WriteReg(R3, 0x00000000)  returns 0x00 (0000ms, 0274ms total)
T4DA4 000:796 JLINK_WriteReg(R4, 0x00000000)  returns 0x00 (0000ms, 0274ms total)
T4DA4 000:796 JLINK_WriteReg(R5, 0x00000000)  returns 0x00 (0000ms, 0274ms total)
T4DA4 000:796 JLINK_WriteReg(R6, 0x00000000)  returns 0x00 (0000ms, 0274ms total)
T4DA4 000:796 JLINK_WriteReg(R7, 0x00000000)  returns 0x00 (0000ms, 0274ms total)
T4DA4 000:796 JLINK_WriteReg(R8, 0x00000000)  returns 0x00 (0000ms, 0274ms total)
T4DA4 000:796 JLINK_WriteReg(R9, 0x2000017C)  returns 0x00 (0000ms, 0274ms total)
T4DA4 000:796 JLINK_WriteReg(R10, 0x00000000)  returns 0x00 (0000ms, 0274ms total)
T4DA4 000:796 JLINK_WriteReg(R11, 0x00000000)  returns 0x00 (0000ms, 0274ms total)
T4DA4 000:796 JLINK_WriteReg(R12, 0x00000000)  returns 0x00 (0000ms, 0274ms total)
T4DA4 000:796 JLINK_WriteReg(R13 (SP), 0x20001000)  returns 0x00 (0000ms, 0274ms total)
T4DA4 000:796 JLINK_WriteReg(R14, 0x20000001)  returns 0x00 (0000ms, 0274ms total)
T4DA4 000:796 JLINK_WriteReg(R15 (PC), 0x20000108)  returns 0x00 (0000ms, 0274ms total)
T4DA4 000:796 JLINK_WriteReg(XPSR, 0x01000000)  returns 0x00 (0000ms, 0274ms total)
T4DA4 000:796 JLINK_WriteReg(MSP, 0x20001000)  returns 0x00 (0000ms, 0274ms total)
T4DA4 000:796 JLINK_WriteReg(PSP, 0x20001000)  returns 0x00 (0000ms, 0274ms total)
T4DA4 000:796 JLINK_WriteReg(CFBP, 0x00000000)  returns 0x00 (0000ms, 0274ms total)
T4DA4 000:796 JLINK_SetBPEx(Addr = 0x20000000, Type = 0xFFFFFFF2)  returns 0x00000007 (0000ms, 0274ms total)
T4DA4 000:796 JLINK_Go() -- CPU_ReadMem(4 bytes @ 0xE0001000) (0002ms, 0276ms total)
T4DA4 000:798 JLINK_IsHalted()  returns FALSE (0001ms, 0277ms total)
T4DA4 000:802 JLINK_IsHalted()  returns FALSE (0000ms, 0276ms total)
T4DA4 000:804 JLINK_IsHalted() -- CPU_ReadMem(2 bytes @ 0x20000000)  returns TRUE (0004ms, 0280ms total)
T4DA4 000:808 JLINK_ReadReg(R15 (PC))  returns 0x20000000 (0000ms, 0276ms total)
T4DA4 000:808 JLINK_ClrBPEx(BPHandle = 0x00000007)  returns 0x00 (0000ms, 0276ms total)
T4DA4 000:808 JLINK_ReadReg(R0)  returns 0x00000000 (0000ms, 0276ms total)
T4DA4 000:808 JLINK_WriteMem(0x20000180, 0x0280 Bytes, ...) - Data: 08 51 10 EB 0A 00 41 EB 0B 01 BD E8 F0 4D 00 F0 ... -- CPU_WriteMem(640 bytes @ 0x20000180)  returns 0x280 (0009ms, 0285ms total)
T4DA4 000:817 JLINK_WriteMem(0x20000400, 0x0180 Bytes, ...) - Data: BA F1 2D 0F 0B D1 02 E0 40 46 11 B0 8D E7 44 F4 ... -- CPU_WriteMem(384 bytes @ 0x20000400)  returns 0x180 (0005ms, 0290ms total)
T4DA4 000:822 JLINK_WriteReg(R0, 0x08000800)  returns 0x00 (0000ms, 0290ms total)
T4DA4 000:822 JLINK_WriteReg(R1, 0x00000400)  returns 0x00 (0000ms, 0290ms total)
T4DA4 000:822 JLINK_WriteReg(R2, 0x20000180)  returns 0x00 (0000ms, 0290ms total)
T4DA4 000:822 JLINK_WriteReg(R3, 0x00000000)  returns 0x00 (0000ms, 0290ms total)
T4DA4 000:822 JLINK_WriteReg(R4, 0x00000000)  returns 0x00 (0000ms, 0290ms total)
T4DA4 000:822 JLINK_WriteReg(R5, 0x00000000)  returns 0x00 (0000ms, 0290ms total)
T4DA4 000:822 JLINK_WriteReg(R6, 0x00000000)  returns 0x00 (0000ms, 0290ms total)
T4DA4 000:822 JLINK_WriteReg(R7, 0x00000000)  returns 0x00 (0000ms, 0290ms total)
T4DA4 000:822 JLINK_WriteReg(R8, 0x00000000)  returns 0x00 (0000ms, 0290ms total)
T4DA4 000:822 JLINK_WriteReg(R9, 0x2000017C)  returns 0x00 (0000ms, 0290ms total)
T4DA4 000:822 JLINK_WriteReg(R10, 0x00000000)  returns 0x00 (0000ms, 0290ms total)
T4DA4 000:822 JLINK_WriteReg(R11, 0x00000000)  returns 0x00 (0000ms, 0290ms total)
T4DA4 000:822 JLINK_WriteReg(R12, 0x00000000)  returns 0x00 (0000ms, 0290ms total)
T4DA4 000:822 JLINK_WriteReg(R13 (SP), 0x20001000)  returns 0x00 (0000ms, 0290ms total)
T4DA4 000:822 JLINK_WriteReg(R14, 0x20000001)  returns 0x00 (0000ms, 0290ms total)
T4DA4 000:822 JLINK_WriteReg(R15 (PC), 0x20000108)  returns 0x00 (0000ms, 0290ms total)
T4DA4 000:822 JLINK_WriteReg(XPSR, 0x01000000)  returns 0x00 (0000ms, 0290ms total)
T4DA4 000:822 JLINK_WriteReg(MSP, 0x20001000)  returns 0x00 (0000ms, 0290ms total)
T4DA4 000:822 JLINK_WriteReg(PSP, 0x20001000)  returns 0x00 (0000ms, 0290ms total)
T4DA4 000:822 JLINK_WriteReg(CFBP, 0x00000000)  returns 0x00 (0000ms, 0290ms total)
T4DA4 000:822 JLINK_SetBPEx(Addr = 0x20000000, Type = 0xFFFFFFF2)  returns 0x00000008 (0000ms, 0290ms total)
T4DA4 000:822 JLINK_Go() -- CPU_ReadMem(4 bytes @ 0xE0001000) (0002ms, 0292ms total)
T4DA4 000:824 JLINK_IsHalted()  returns FALSE (0001ms, 0293ms total)
T4DA4 000:828 JLINK_IsHalted()  returns FALSE (0000ms, 0292ms total)
T4DA4 000:830 JLINK_IsHalted() -- CPU_ReadMem(2 bytes @ 0x20000000)  returns TRUE (0004ms, 0296ms total)
T4DA4 000:834 JLINK_ReadReg(R15 (PC))  returns 0x20000000 (0000ms, 0292ms total)
T4DA4 000:834 JLINK_ClrBPEx(BPHandle = 0x00000008)  returns 0x00 (0000ms, 0292ms total)
T4DA4 000:834 JLINK_ReadReg(R0)  returns 0x00000000 (0000ms, 0292ms total)
T4DA4 000:835 JLINK_WriteMem(0x20000180, 0x0280 Bytes, ...) - Data: 02 F0 D0 F8 00 28 D6 D1 F9 69 0E 98 88 47 FF 20 ... -- CPU_WriteMem(640 bytes @ 0x20000180)  returns 0x280 (0007ms, 0299ms total)
T4DA4 000:842 JLINK_WriteMem(0x20000400, 0x0180 Bytes, ...) - Data: 01 F0 69 FE 05 E0 A5 A1 94 48 01 F0 64 FE 1A B0 ... -- CPU_WriteMem(384 bytes @ 0x20000400)  returns 0x180 (0006ms, 0305ms total)
T4DA4 000:848 JLINK_WriteReg(R0, 0x08000C00)  returns 0x00 (0000ms, 0305ms total)
T4DA4 000:848 JLINK_WriteReg(R1, 0x00000400)  returns 0x00 (0000ms, 0305ms total)
T4DA4 000:848 JLINK_WriteReg(R2, 0x20000180)  returns 0x00 (0000ms, 0305ms total)
T4DA4 000:848 JLINK_WriteReg(R3, 0x00000000)  returns 0x00 (0000ms, 0305ms total)
T4DA4 000:848 JLINK_WriteReg(R4, 0x00000000)  returns 0x00 (0000ms, 0305ms total)
T4DA4 000:848 JLINK_WriteReg(R5, 0x00000000)  returns 0x00 (0000ms, 0305ms total)
T4DA4 000:848 JLINK_WriteReg(R6, 0x00000000)  returns 0x00 (0000ms, 0305ms total)
T4DA4 000:848 JLINK_WriteReg(R7, 0x00000000)  returns 0x00 (0000ms, 0305ms total)
T4DA4 000:848 JLINK_WriteReg(R8, 0x00000000)  returns 0x00 (0000ms, 0305ms total)
T4DA4 000:848 JLINK_WriteReg(R9, 0x2000017C)  returns 0x00 (0000ms, 0305ms total)
T4DA4 000:848 JLINK_WriteReg(R10, 0x00000000)  returns 0x00 (0000ms, 0305ms total)
T4DA4 000:848 JLINK_WriteReg(R11, 0x00000000)  returns 0x00 (0000ms, 0305ms total)
T4DA4 000:848 JLINK_WriteReg(R12, 0x00000000)  returns 0x00 (0000ms, 0305ms total)
T4DA4 000:849 JLINK_WriteReg(R13 (SP), 0x20001000)  returns 0x00 (0000ms, 0306ms total)
T4DA4 000:849 JLINK_WriteReg(R14, 0x20000001)  returns 0x00 (0000ms, 0306ms total)
T4DA4 000:849 JLINK_WriteReg(R15 (PC), 0x20000108)  returns 0x00 (0000ms, 0306ms total)
T4DA4 000:849 JLINK_WriteReg(XPSR, 0x01000000)  returns 0x00 (0000ms, 0306ms total)
T4DA4 000:849 JLINK_WriteReg(MSP, 0x20001000)  returns 0x00 (0000ms, 0306ms total)
T4DA4 000:849 JLINK_WriteReg(PSP, 0x20001000)  returns 0x00 (0000ms, 0306ms total)
T4DA4 000:849 JLINK_WriteReg(CFBP, 0x00000000)  returns 0x00 (0000ms, 0306ms total)
T4DA4 000:849 JLINK_SetBPEx(Addr = 0x20000000, Type = 0xFFFFFFF2)  returns 0x00000009 (0000ms, 0306ms total)
T4DA4 000:849 JLINK_Go() -- CPU_ReadMem(4 bytes @ 0xE0001000) (0002ms, 0308ms total)
T4DA4 000:851 JLINK_IsHalted()  returns FALSE (0000ms, 0308ms total)
T4DA4 000:853 JLINK_IsHalted()  returns FALSE (0000ms, 0308ms total)
T4DA4 000:855 JLINK_IsHalted() -- CPU_ReadMem(2 bytes @ 0x20000000)  returns TRUE (0004ms, 0312ms total)
T4DA4 000:859 JLINK_ReadReg(R15 (PC))  returns 0x20000000 (0000ms, 0308ms total)
T4DA4 000:859 JLINK_ClrBPEx(BPHandle = 0x00000009)  returns 0x00 (0000ms, 0308ms total)
T4DA4 000:859 JLINK_ReadReg(R0)  returns 0x00000000 (0000ms, 0308ms total)
T4DA4 000:860 JLINK_WriteMem(0x20000180, 0x0280 Bytes, ...) - Data: 36 48 01 F0 A8 FD 04 E0 E8 A1 34 48 01 F0 A3 FD ... -- CPU_WriteMem(640 bytes @ 0x20000180)  returns 0x280 (0007ms, 0315ms total)
T4DA4 000:867 JLINK_WriteMem(0x20000400, 0x0180 Bytes, ...) - Data: 38 32 36 36 5D 20 57 69 46 69 20 63 6F 6E 6E 65 ... -- CPU_WriteMem(384 bytes @ 0x20000400)  returns 0x180 (0006ms, 0321ms total)
T4DA4 000:873 JLINK_WriteReg(R0, 0x08001000)  returns 0x00 (0000ms, 0321ms total)
T4DA4 000:873 JLINK_WriteReg(R1, 0x00000400)  returns 0x00 (0000ms, 0321ms total)
T4DA4 000:873 JLINK_WriteReg(R2, 0x20000180)  returns 0x00 (0000ms, 0321ms total)
T4DA4 000:873 JLINK_WriteReg(R3, 0x00000000)  returns 0x00 (0000ms, 0321ms total)
T4DA4 000:873 JLINK_WriteReg(R4, 0x00000000)  returns 0x00 (0000ms, 0321ms total)
T4DA4 000:873 JLINK_WriteReg(R5, 0x00000000)  returns 0x00 (0000ms, 0321ms total)
T4DA4 000:873 JLINK_WriteReg(R6, 0x00000000)  returns 0x00 (0000ms, 0321ms total)
T4DA4 000:873 JLINK_WriteReg(R7, 0x00000000)  returns 0x00 (0000ms, 0321ms total)
T4DA4 000:873 JLINK_WriteReg(R8, 0x00000000)  returns 0x00 (0000ms, 0321ms total)
T4DA4 000:873 JLINK_WriteReg(R9, 0x2000017C)  returns 0x00 (0000ms, 0321ms total)
T4DA4 000:873 JLINK_WriteReg(R10, 0x00000000)  returns 0x00 (0000ms, 0321ms total)
T4DA4 000:873 JLINK_WriteReg(R11, 0x00000000)  returns 0x00 (0000ms, 0321ms total)
T4DA4 000:873 JLINK_WriteReg(R12, 0x00000000)  returns 0x00 (0000ms, 0321ms total)
T4DA4 000:873 JLINK_WriteReg(R13 (SP), 0x20001000)  returns 0x00 (0000ms, 0321ms total)
T4DA4 000:873 JLINK_WriteReg(R14, 0x20000001)  returns 0x00 (0000ms, 0321ms total)
T4DA4 000:873 JLINK_WriteReg(R15 (PC), 0x20000108)  returns 0x00 (0000ms, 0321ms total)
T4DA4 000:873 JLINK_WriteReg(XPSR, 0x01000000)  returns 0x00 (0000ms, 0321ms total)
T4DA4 000:873 JLINK_WriteReg(MSP, 0x20001000)  returns 0x00 (0000ms, 0321ms total)
T4DA4 000:873 JLINK_WriteReg(PSP, 0x20001000)  returns 0x00 (0000ms, 0321ms total)
T4DA4 000:873 JLINK_WriteReg(CFBP, 0x00000000)  returns 0x00 (0000ms, 0321ms total)
T4DA4 000:873 JLINK_SetBPEx(Addr = 0x20000000, Type = 0xFFFFFFF2)  returns 0x0000000A (0000ms, 0321ms total)
T4DA4 000:873 JLINK_Go() -- CPU_ReadMem(4 bytes @ 0xE0001000) (0003ms, 0324ms total)
T4DA4 000:876 JLINK_IsHalted()  returns FALSE (0001ms, 0325ms total)
T4DA4 000:879 JLINK_IsHalted()  returns FALSE (0000ms, 0324ms total)
T4DA4 000:881 JLINK_IsHalted() -- CPU_ReadMem(2 bytes @ 0x20000000)  returns TRUE (0004ms, 0328ms total)
T4DA4 000:885 JLINK_ReadReg(R15 (PC))  returns 0x20000000 (0000ms, 0324ms total)
T4DA4 000:885 JLINK_ClrBPEx(BPHandle = 0x0000000A)  returns 0x00 (0000ms, 0324ms total)
T4DA4 000:885 JLINK_ReadReg(R0)  returns 0x00000000 (0000ms, 0324ms total)
T4DA4 000:886 JLINK_WriteMem(0x20000180, 0x0280 Bytes, ...) - Data: 41 54 2B 4D 51 54 54 43 4F 4E 4E 3D 30 2C 22 25 ... -- CPU_WriteMem(640 bytes @ 0x20000180)  returns 0x280 (0008ms, 0332ms total)
T4DA4 000:894 JLINK_WriteMem(0x20000400, 0x0180 Bytes, ...) - Data: 20 05 55 F8 26 50 45 EA 03 04 CE 10 00 F1 20 05 ... -- CPU_WriteMem(384 bytes @ 0x20000400)  returns 0x180 (0005ms, 0337ms total)
T4DA4 000:899 JLINK_WriteReg(R0, 0x08001400)  returns 0x00 (0000ms, 0337ms total)
T4DA4 000:899 JLINK_WriteReg(R1, 0x00000400)  returns 0x00 (0000ms, 0337ms total)
T4DA4 000:899 JLINK_WriteReg(R2, 0x20000180)  returns 0x00 (0000ms, 0337ms total)
T4DA4 000:899 JLINK_WriteReg(R3, 0x00000000)  returns 0x00 (0000ms, 0337ms total)
T4DA4 000:899 JLINK_WriteReg(R4, 0x00000000)  returns 0x00 (0000ms, 0337ms total)
T4DA4 000:899 JLINK_WriteReg(R5, 0x00000000)  returns 0x00 (0000ms, 0337ms total)
T4DA4 000:899 JLINK_WriteReg(R6, 0x00000000)  returns 0x00 (0000ms, 0337ms total)
T4DA4 000:899 JLINK_WriteReg(R7, 0x00000000)  returns 0x00 (0000ms, 0337ms total)
T4DA4 000:899 JLINK_WriteReg(R8, 0x00000000)  returns 0x00 (0000ms, 0337ms total)
T4DA4 000:899 JLINK_WriteReg(R9, 0x2000017C)  returns 0x00 (0000ms, 0337ms total)
T4DA4 000:899 JLINK_WriteReg(R10, 0x00000000)  returns 0x00 (0000ms, 0337ms total)
T4DA4 000:899 JLINK_WriteReg(R11, 0x00000000)  returns 0x00 (0000ms, 0337ms total)
T4DA4 000:899 JLINK_WriteReg(R12, 0x00000000)  returns 0x00 (0000ms, 0337ms total)
T4DA4 000:899 JLINK_WriteReg(R13 (SP), 0x20001000)  returns 0x00 (0000ms, 0337ms total)
T4DA4 000:899 JLINK_WriteReg(R14, 0x20000001)  returns 0x00 (0000ms, 0337ms total)
T4DA4 000:899 JLINK_WriteReg(R15 (PC), 0x20000108)  returns 0x00 (0000ms, 0337ms total)
T4DA4 000:899 JLINK_WriteReg(XPSR, 0x01000000)  returns 0x00 (0000ms, 0337ms total)
T4DA4 000:899 JLINK_WriteReg(MSP, 0x20001000)  returns 0x00 (0000ms, 0337ms total)
T4DA4 000:899 JLINK_WriteReg(PSP, 0x20001000)  returns 0x00 (0000ms, 0337ms total)
T4DA4 000:899 JLINK_WriteReg(CFBP, 0x00000000)  returns 0x00 (0000ms, 0337ms total)
T4DA4 000:899 JLINK_SetBPEx(Addr = 0x20000000, Type = 0xFFFFFFF2)  returns 0x0000000B (0000ms, 0337ms total)
T4DA4 000:899 JLINK_Go() -- CPU_ReadMem(4 bytes @ 0xE0001000) (0004ms, 0341ms total)
T4DA4 000:903 JLINK_IsHalted()  returns FALSE (0000ms, 0341ms total)
T4DA4 000:908 JLINK_IsHalted() -- CPU_ReadMem(2 bytes @ 0x20000000)  returns TRUE (0004ms, 0345ms total)
T4DA4 000:912 JLINK_ReadReg(R15 (PC))  returns 0x20000000 (0000ms, 0341ms total)
T4DA4 000:912 JLINK_ClrBPEx(BPHandle = 0x0000000B)  returns 0x00 (0000ms, 0341ms total)
T4DA4 000:912 JLINK_ReadReg(R0)  returns 0x00000000 (0000ms, 0341ms total)
T4DA4 000:912 JLINK_WriteMem(0x20000180, 0x0280 Bytes, ...) - Data: 24 B9 44 A1 38 46 FE F7 ED FC 04 46 E4 B1 45 A1 ... -- CPU_WriteMem(640 bytes @ 0x20000180)  returns 0x280 (0009ms, 0350ms total)
T4DA4 000:921 JLINK_WriteMem(0x20000400, 0x0180 Bytes, ...) - Data: 26 4F B7 FB F3 F7 DF F8 8C C0 AC F1 04 0C DC F8 ... -- CPU_WriteMem(384 bytes @ 0x20000400)  returns 0x180 (0005ms, 0355ms total)
T4DA4 000:926 JLINK_WriteReg(R0, 0x08001800)  returns 0x00 (0000ms, 0355ms total)
T4DA4 000:926 JLINK_WriteReg(R1, 0x00000400)  returns 0x00 (0000ms, 0355ms total)
T4DA4 000:926 JLINK_WriteReg(R2, 0x20000180)  returns 0x00 (0000ms, 0355ms total)
T4DA4 000:926 JLINK_WriteReg(R3, 0x00000000)  returns 0x00 (0000ms, 0355ms total)
T4DA4 000:926 JLINK_WriteReg(R4, 0x00000000)  returns 0x00 (0000ms, 0355ms total)
T4DA4 000:926 JLINK_WriteReg(R5, 0x00000000)  returns 0x00 (0000ms, 0355ms total)
T4DA4 000:926 JLINK_WriteReg(R6, 0x00000000)  returns 0x00 (0000ms, 0355ms total)
T4DA4 000:926 JLINK_WriteReg(R7, 0x00000000)  returns 0x00 (0000ms, 0355ms total)
T4DA4 000:926 JLINK_WriteReg(R8, 0x00000000)  returns 0x00 (0000ms, 0355ms total)
T4DA4 000:926 JLINK_WriteReg(R9, 0x2000017C)  returns 0x00 (0000ms, 0355ms total)
T4DA4 000:926 JLINK_WriteReg(R10, 0x00000000)  returns 0x00 (0000ms, 0355ms total)
T4DA4 000:926 JLINK_WriteReg(R11, 0x00000000)  returns 0x00 (0000ms, 0355ms total)
